! Cinvestav GDL Microondas I 
! 
# GHZ  S  RI  R  50
! 
!	Freq			Res11			Ims11			Res21			Ims21			Res12			Ims12			Res22			Ims22
!		----				-----				-----				-----				-----				-----				-----				----- 				-----
	0.0000000010		-1.0000000000		-0.0000000010		0.0000000000		0.0000000000		0.0000000000		-0.0000000000		1.0000000000		-0.0000000015		
	0.0000000012		-1.0000000000		-0.0000000013		0.0000000000		0.0000000000		0.0000000000		-0.0000000000		1.0000000000		-0.0000000019		
	0.0000000015		-1.0000000000		-0.0000000016		0.0000000000		0.0000000000		0.0000000000		-0.0000000000		1.0000000000		-0.0000000023		
	0.0000000019		-1.0000000000		-0.0000000020		0.0000000000		0.0000000000		0.0000000000		-0.0000000000		1.0000000000		-0.0000000028		
	0.0000000023		-1.0000000000		-0.0000000024		0.0000000000		0.0000000000		0.0000000000		-0.0000000000		1.0000000000		-0.0000000035		
	0.0000000028		-1.0000000000		-0.0000000030		0.0000000000		0.0000000000		0.0000000000		-0.0000000000		1.0000000000		-0.0000000043		
	0.0000000035		-1.0000000000		-0.0000000037		0.0000000000		0.0000000000		0.0000000000		-0.0000000000		1.0000000000		-0.0000000053		
	0.0000000043		-1.0000000000		-0.0000000045		0.0000000000		0.0000000000		0.0000000000		-0.0000000000		1.0000000000		-0.0000000066		
	0.0000000053		-1.0000000000		-0.0000000056		0.0000000000		0.0000000000		0.0000000000		-0.0000000000		1.0000000000		-0.0000000081		
	0.0000000066		-1.0000000000		-0.0000000069		0.0000000000		0.0000000000		0.0000000000		-0.0000000000		1.0000000000		-0.0000000100		
	0.0000000081		-1.0000000000		-0.0000000085		0.0000000000		0.0000000000		0.0000000000		-0.0000000000		1.0000000000		-0.0000000123		
	0.0000000100		-1.0000000000		-0.0000000104		0.0000000000		0.0000000000		0.0000000000		-0.0000000000		1.0000000000		-0.0000000152		
	0.0000000123		-1.0000000000		-0.0000000129		0.0000000000		0.0000000000		0.0000000000		-0.0000000000		1.0000000000		-0.0000000187		
	0.0000000152		-1.0000000000		-0.0000000159		0.0000000000		0.0000000000		0.0000000000		-0.0000000000		1.0000000000		-0.0000000231		
	0.0000000187		-1.0000000000		-0.0000000196		0.0000000000		0.0000000000		0.0000000000		-0.0000000000		1.0000000000		-0.0000000285		
	0.0000000231		-1.0000000000		-0.0000000241		0.0000000000		0.0000000000		0.0000000000		-0.0000000000		1.0000000000		-0.0000000351		
	0.0000000285		-1.0000000000		-0.0000000297		0.0000000000		0.0000000000		0.0000000000		-0.0000000000		1.0000000000		-0.0000000433		
	0.0000000351		-1.0000000000		-0.0000000367		0.0000000000		0.0000000000		0.0000000000		-0.0000000000		1.0000000000		-0.0000000534		
	0.0000000433		-1.0000000000		-0.0000000452		0.0000000000		0.0000000000		0.0000000000		-0.0000000000		1.0000000000		-0.0000000658		
	0.0000000534		-1.0000000000		-0.0000000557		0.0000000000		0.0000000000		0.0000000000		-0.0000000000		1.0000000000		-0.0000000811		
	0.0000000658		-1.0000000000		-0.0000000687		0.0000000000		0.0000000000		0.0000000000		-0.0000000000		1.0000000000		-0.0000001000		
	0.0000000811		-1.0000000000		-0.0000000847		0.0000000000		0.0000000000		0.0000000000		-0.0000000000		1.0000000000		-0.0000001233		
	0.0000001000		-1.0000000000		-0.0000001044		0.0000000000		0.0000000000		0.0000000000		-0.0000000000		1.0000000000		-0.0000001520		
	0.0000001233		-1.0000000000		-0.0000001287		0.0000000000		0.0000000000		0.0000000000		-0.0000000000		1.0000000000		-0.0000001874		
	0.0000001520		-1.0000000000		-0.0000001587		0.0000000000		0.0000000000		0.0000000000		-0.0000000000		1.0000000000		-0.0000002310		
	0.0000001874		-1.0000000000		-0.0000001956		0.0000000000		0.0000000000		0.0000000000		-0.0000000000		1.0000000000		-0.0000002848		
	0.0000002310		-1.0000000000		-0.0000002412		0.0000000000		0.0000000000		0.0000000000		-0.0000000000		1.0000000000		-0.0000003511		
	0.0000002848		-1.0000000000		-0.0000002973		0.0000000000		0.0000000000		0.0000000000		-0.0000000000		1.0000000000		-0.0000004329		
	0.0000003511		-1.0000000000		-0.0000003666		0.0000000000		0.0000000000		0.0000000000		-0.0000000000		1.0000000000		-0.0000005337		
	0.0000004329		-1.0000000000		-0.0000004519		0.0000000000		0.0000000000		0.0000000000		-0.0000000000		1.0000000000		-0.0000006579		
	0.0000005337		-1.0000000000		-0.0000005572		0.0000000000		0.0000000000		0.0000000000		-0.0000000000		1.0000000000		-0.0000008111		
	0.0000006579		-1.0000000000		-0.0000006869		0.0000000000		0.0000000000		0.0000000000		-0.0000000000		1.0000000000		-0.0000010000		
	0.0000008111		-1.0000000000		-0.0000008468		0.0000000000		0.0000000000		0.0000000000		-0.0000000000		1.0000000000		-0.0000012328		
	0.0000010000		-1.0000000000		-0.0000010440		0.0000000000		0.0000000000		0.0000000000		-0.0000000000		1.0000000000		-0.0000015199		
	0.0000012328		-1.0000000000		-0.0000012871		0.0000000000		0.0000000000		0.0000000000		-0.0000000000		1.0000000000		-0.0000018738		
	0.0000015199		-1.0000000000		-0.0000015868		0.0000000000		0.0000000000		0.0000000000		-0.0000000000		1.0000000000		-0.0000023101		
	0.0000018738		-1.0000000000		-0.0000019563		0.0000000000		0.0000000000		0.0000000000		-0.0000000000		1.0000000000		-0.0000028480		
	0.0000023101		-1.0000000000		-0.0000024118		0.0000000000		0.0000000000		0.0000000000		-0.0000000000		1.0000000000		-0.0000035112		
	0.0000028480		-1.0000000000		-0.0000029734		0.0000000000		0.0000000000		0.0000000000		-0.0000000000		1.0000000000		-0.0000043287		
	0.0000035112		-1.0000000000		-0.0000036657		0.0000000000		0.0000000000		0.0000000000		-0.0000000000		1.0000000000		-0.0000053367		
	0.0000043288		-1.0000000000		-0.0000045193		0.0000000000		0.0000000000		0.0000000000		-0.0000000000		1.0000000000		-0.0000065793		
	0.0000053367		-1.0000000000		-0.0000055716		0.0000000000		0.0000000000		0.0000000000		-0.0000000000		1.0000000000		-0.0000081113		
	0.0000065793		-1.0000000000		-0.0000068689		0.0000000000		0.0000000000		0.0000000000		-0.0000000000		1.0000000000		-0.0000099999		
	0.0000081113		-1.0000000000		-0.0000084683		0.0000000000		0.0000000000		0.0000000001		-0.0000000000		0.9999999999		-0.0000123284		
	0.0000100000		-0.9999999999		-0.0000104401		0.0000000000		0.0000000000		0.0000000001		-0.0000000000		0.9999999999		-0.0000151990		
	0.0000123285		-0.9999999999		-0.0000128711		0.0000000000		0.0000000000		0.0000000001		-0.0000000000		0.9999999998		-0.0000187381		
	0.0000151991		-0.9999999999		-0.0000158681		0.0000000000		0.0000000000		0.0000000002		-0.0000000000		0.9999999997		-0.0000231012		
	0.0000187382		-0.9999999998		-0.0000195629		0.0000000000		0.0000000000		0.0000000003		-0.0000000000		0.9999999996		-0.0000284802		
	0.0000231013		-0.9999999997		-0.0000241181		0.0000000000		0.0000000000		0.0000000004		-0.0000000000		0.9999999994		-0.0000351117		
	0.0000284804		-0.9999999996		-0.0000297339		0.0000000000		0.0000000000		0.0000000006		-0.0000000000		0.9999999991		-0.0000432874		
	0.0000351119		-0.9999999993		-0.0000366573		0.0000000000		0.0000000000		0.0000000010		-0.0000000000		0.9999999986		-0.0000533667		
	0.0000432876		-0.9999999990		-0.0000451929		0.0000000000		0.0000000000		0.0000000015		-0.0000000000		0.9999999978		-0.0000657930		
	0.0000533670		-0.9999999984		-0.0000557159		0.0000000000		0.0000000000		0.0000000023		-0.0000000000		0.9999999967		-0.0000811126		
	0.0000657933		-0.9999999976		-0.0000686892		0.0000000000		0.0000000000		0.0000000034		-0.0000000000		0.9999999950		-0.0000999994		
	0.0000811131		-0.9999999964		-0.0000846832		0.0000000000		0.0000000000		0.0000000052		-0.0000000000		0.9999999924		-0.0001232840		
	0.0001000000		-0.9999999946		-0.0001044014		0.0000000000		0.0000000000		0.0000000079		-0.0000000000		0.9999999884		-0.0001519903		
	0.0001232847		-0.9999999917		-0.0001287109		0.0000000000		0.0000000000		0.0000000121		-0.0000000000		0.9999999824		-0.0001873807		
	0.0001519911		-0.9999999874		-0.0001586809		0.0000000000		0.0000000000		0.0000000183		-0.0000000000		0.9999999733		-0.0002310117		
	0.0001873817		-0.9999999809		-0.0001956292		0.0000000000		0.0000000000		0.0000000279		-0.0000000000		0.9999999594		-0.0002848020		
	0.0002310130		-0.9999999709		-0.0002411808		0.0000000000		0.0000000000		0.0000000423		-0.0000000000		0.9999999384		-0.0003511173		
	0.0002848036		-0.9999999558		-0.0002973389		0.0000000000		0.0000000000		0.0000000644		-0.0000000000		0.9999999063		-0.0004328738		
	0.0003511192		-0.9999999328		-0.0003665733		0.0000000000		0.0000000000		0.0000000978		-0.0000000000		0.9999998576		-0.0005336672		
	0.0004328761		-0.9999998979		-0.0004519287		0.0000000000		0.0000000000		0.0000001487		-0.0000000000		0.9999997836		-0.0006579300		
	0.0005336699		-0.9999998448		-0.0005571589		0.0000000000		0.0000000000		0.0000002260		-0.0000000000		0.9999996710		-0.0008111271		
	0.0006579332		-0.9999997641		-0.0006868915		0.0000000000		0.0000000000		0.0000003434		-0.0000000001		0.9999995000		-0.0009999959		
	0.0008111308		-0.9999996414		-0.0008468318		0.0000000000		0.0000000000		0.0000005220		-0.0000000001		0.9999992400		-0.0012328427		
	0.0010000000		-0.9999994550		-0.0010440138		0.0000000000		0.0000000000		0.0000007934		-0.0000000002		0.9999988449		-0.0015199080		
	0.0012328467		-0.9999991717		-0.0012871088		0.0000000000		0.0000000000		0.0000012059		-0.0000000004		0.9999982444		-0.0018738171		
	0.0015199111		-0.9999987410		-0.0015868076		0.0000000000		0.0000000000		0.0000018329		-0.0000000007		0.9999973316		-0.0023101359		
	0.0018738174		-0.9999980865		-0.0019562899		0.0000000000		0.0000000000		0.0000027858		-0.0000000012		0.9999959443		-0.0028480557		
	0.0023101297		-0.9999970916		-0.0024118044		0.0000000000		0.0000000000		0.0000042342		-0.0000000023		0.9999938356		-0.0035112392		
	0.0028480359		-0.9999955795		-0.0029733829		0.0000000000		0.0000000000		0.0000064357		-0.0000000044		0.9999906304		-0.0043288630		
	0.0035111917		-0.9999932812		-0.0036657213		0.0000000000		0.0000000000		0.0000097819		-0.0000000082		0.9999857586		-0.0053369054		
	0.0043287613		-0.9999897881		-0.0045192646		0.0000000000		0.0000000000		0.0000148679		-0.0000000153		0.9999783533		-0.0065797378		
	0.0053366992		-0.9999844788		-0.0055715459		0.0000000000		0.0000000000		0.0000225987		-0.0000000287		0.9999670964		-0.0081120920		
	0.0065793322		-0.9999764093		-0.0068688344		0.0000000000		0.0000000000		0.0000343499		-0.0000000538		0.9999499838		-0.0100014978		
	0.0081113083		-0.9999641444		-0.0084681682		0.0000000000		0.0000000000		0.0000522132		-0.0000001009		0.9999239665		-0.0123313102		
	0.0100000000		-0.9999455032		-0.0104398562		0.0000000000		0.0000000000		0.0000793695		-0.0000001891		0.9998844052		-0.0152044828		
	0.0123284674		-0.9999171709		-0.0128705604		0.0000000000		0.0000000000		0.0001206578		-0.0000003546		0.9998242352		-0.0187482966		
	0.0151991108		-0.9998741099		-0.0158670868		0.0000000000		0.0000000000		0.0001834430		-0.0000006654		0.9997326893		-0.0231203366		
	0.0187381742		-0.9998086644		-0.0195610460		0.0000000000		0.0000000000		0.0002789416		-0.0000012493		0.9995933324		-0.0285161313		
	0.0231012970		-0.9997092014		-0.0241145724		0.0000000000		0.0000000000		0.0004242543		-0.0000023482		0.9993810243		-0.0351790874		
	0.0284803587		-0.9995580454		-0.0297273247		0.0000000000		0.0000000000		0.0006454950		-0.0000044203		0.9990571806		-0.0434137063		
	0.0351119173		-0.9993283455		-0.0366450252		0.0000000000		0.0000000000		0.0009826376		-0.0000083409		0.9985622873		-0.0536037166		
	0.0432876128		-0.9989793231		-0.0451698132		0.0000000000		0.0000000000		0.0014970981		-0.0000157959		0.9978038571		-0.0662379258		
	0.0533669923		-0.9984490734		-0.0556726853		0.0000000000		0.0000000000		0.0022837632		-0.0000300781		0.9966365403		-0.0819488042		
	0.0657933225		-0.9976436794		-0.0686082276		0.0000000000		0.0000000000		0.0034904680		-0.0000577488		0.9948280799		-0.1015730844		
	0.0811130831		-0.9964207947		-0.0845316508		0.0000000000		0.0000000000		0.0053504738		-0.0001122624		0.9919981754		-0.1262522076		
	0.1000000000		-0.9945649831		-0.1041176954		0.0000000000		0.0000000000		0.0082388674		-0.0002223444		0.9875017183		-0.1576082370		
	0.1232846739		-0.9917509123		-0.1281800604		0.0000000000		0.0000000000		0.0127760064		-0.0004528082		0.9801879456		-0.1980696630		
	0.1519911083		-0.9874889489		-0.1576882235		0.0000000000		0.0000000000		0.0200312358		-0.0009611523		0.9678544819		-0.2515108385		
	0.1873817423		-0.9810459593		-0.1937751939		0.0000000000		0.0000000000		0.0319612946		-0.0021697118		0.9458568219		-0.3245841530		
	0.2310129700		-0.9713327927		-0.2377238014		0.0000000000		0.0000000000		0.0524574911		-0.0053710516		0.9030028792		-0.4296344960		
	0.2848035868		-0.9567506964		-0.2909091008		0.0000000000		0.0000000000		0.0901040163		-0.0153191269		0.8068544762		-0.5907502469		
	0.3511191734		-0.9349957403		-0.3546589427		0.0000000000		0.0000000000		0.1646225593		-0.0546660213		0.5371232433		-0.8435037768		
	0.4328761281		-0.9028411172		-0.4299743215		0.0000000000		0.0000000000		0.2656879567		-0.2529783969		-0.3852378259		-0.9228173262		
	0.5336699231		-0.8559650270		-0.5170337247		0.0000000000		0.0000000000		-0.0776581653		-0.4812604049		-0.6498935160		0.7600252745		
	0.6579332247		-0.7889807755		-0.6144178837		0.0000000000		0.0000000000		-0.2166924005		-0.2660327928		0.4420932805		0.8969690805		
	0.8111308308		-0.6959484759		-0.7180917204		0.0000000000		0.0000000000		-0.1920091005		-0.1755635030		0.7773731328		0.6290397542		
	1.0000000000		-0.5717199240		-0.8204488580		0.0000000000		0.0000000000		-0.1628312471		-0.1418353677		0.8911196454		0.4537684185		
