! Cinvestav GDL Microondas I 
! 
# GHZ  S  RI  R  50
! 
!	Freq			Res11			Ims11			Res21			Ims21			Res12			Ims12			Res22			Ims22
!		----				-----				-----				-----				-----				-----				-----				----- 				-----
	0.1000000000		-0.9940319323		0.1090884668		-0.0000516259		-0.0004704238		-0.0000516259		-0.0004704238		-0.9940319323		0.1090884668		
	0.1002307548		-0.9940017737		0.1093629122		-0.0000521478		-0.0004739727		-0.0000521478		-0.0004739727		-0.9940017737		0.1093629122		
	0.1004620421		-0.9939714500		0.1096381583		-0.0000526752		-0.0004775497		-0.0000526752		-0.0004775497		-0.9939714500		0.1096381583		
	0.1006938631		-0.9939409603		0.1099142083		-0.0000532082		-0.0004811552		-0.0000532082		-0.0004811552		-0.9939409603		0.1099142083		
	0.1009262191		-0.9939103034		0.1101910653		-0.0000537467		-0.0004847892		-0.0000537467		-0.0004847892		-0.9939103034		0.1101910653		
	0.1011591112		-0.9938794784		0.1104687327		-0.0000542910		-0.0004884522		-0.0000542910		-0.0004884522		-0.9938794784		0.1104687327		
	0.1013925408		-0.9938484842		0.1107472134		-0.0000548410		-0.0004921443		-0.0000548410		-0.0004921443		-0.9938484842		0.1107472134		
	0.1016265089		-0.9938173197		0.1110265107		-0.0000553967		-0.0004958658		-0.0000553967		-0.0004958658		-0.9938173197		0.1110265107		
	0.1018610170		-0.9937859839		0.1113066279		-0.0000559584		-0.0004996169		-0.0000559584		-0.0004996169		-0.9937859839		0.1113066279		
	0.1020960662		-0.9937544757		0.1115875681		-0.0000565260		-0.0005033979		-0.0000565260		-0.0005033979		-0.9937544757		0.1115875681		
	0.1023316578		-0.9937227941		0.1118693347		-0.0000570996		-0.0005072090		-0.0000570996		-0.0005072090		-0.9937227941		0.1118693347		
	0.1025677931		-0.9936909378		0.1121519308		-0.0000576792		-0.0005110505		-0.0000576792		-0.0005110505		-0.9936909378		0.1121519308		
	0.1028044732		-0.9936589059		0.1124353599		-0.0000582650		-0.0005149227		-0.0000582650		-0.0005149227		-0.9936589059		0.1124353599		
	0.1030416995		-0.9936266972		0.1127196252		-0.0000588570		-0.0005188259		-0.0000588570		-0.0005188259		-0.9936266972		0.1127196252		
	0.1032794732		-0.9935943107		0.1130047300		-0.0000594552		-0.0005227602		-0.0000594552		-0.0005227602		-0.9935943107		0.1130047300		
	0.1035177956		-0.9935617451		0.1132906778		-0.0000600598		-0.0005267260		-0.0000600598		-0.0005267260		-0.9935617451		0.1132906778		
	0.1037566679		-0.9935289994		0.1135774718		-0.0000606708		-0.0005307235		-0.0000606708		-0.0005307235		-0.9935289994		0.1135774718		
	0.1039960914		-0.9934960723		0.1138651154		-0.0000612883		-0.0005347530		-0.0000612883		-0.0005347530		-0.9934960723		0.1138651154		
	0.1042360674		-0.9934629629		0.1141536122		-0.0000619124		-0.0005388148		-0.0000619124		-0.0005388148		-0.9934629629		0.1141536122		
	0.1044765972		-0.9934296699		0.1144429654		-0.0000625431		-0.0005429092		-0.0000625431		-0.0005429092		-0.9934296699		0.1144429654		
	0.1047176819		-0.9933961921		0.1147331786		-0.0000631805		-0.0005470364		-0.0000631805		-0.0005470364		-0.9933961921		0.1147331786		
	0.1049593231		-0.9933625284		0.1150242552		-0.0000638246		-0.0005511968		-0.0000638246		-0.0005511968		-0.9933625284		0.1150242552		
	0.1052015218		-0.9933286776		0.1153161987		-0.0000644757		-0.0005553905		-0.0000644757		-0.0005553905		-0.9933286776		0.1153161987		
	0.1054442794		-0.9932946385		0.1156090126		-0.0000651336		-0.0005596180		-0.0000651336		-0.0005596180		-0.9932946385		0.1156090126		
	0.1056875971		-0.9932604098		0.1159027005		-0.0000657986		-0.0005638795		-0.0000657986		-0.0005638795		-0.9932604098		0.1159027005		
	0.1059314764		-0.9932259905		0.1161972658		-0.0000664707		-0.0005681753		-0.0000664707		-0.0005681753		-0.9932259905		0.1161972658		
	0.1061759183		-0.9931913792		0.1164927123		-0.0000671499		-0.0005725057		-0.0000671499		-0.0005725057		-0.9931913792		0.1164927123		
	0.1064209244		-0.9931565747		0.1167890434		-0.0000678364		-0.0005768709		-0.0000678364		-0.0005768709		-0.9931565747		0.1167890434		
	0.1066664958		-0.9931215759		0.1170862628		-0.0000685303		-0.0005812714		-0.0000685303		-0.0005812714		-0.9931215759		0.1170862628		
	0.1069126339		-0.9930863814		0.1173843741		-0.0000692315		-0.0005857074		-0.0000692315		-0.0005857074		-0.9930863814		0.1173843741		
	0.1071593400		-0.9930509899		0.1176833810		-0.0000699403		-0.0005901792		-0.0000699403		-0.0005901792		-0.9930509899		0.1176833810		
	0.1074066153		-0.9930154003		0.1179832871		-0.0000706567		-0.0005946871		-0.0000706567		-0.0005946871		-0.9930154003		0.1179832871		
	0.1076544613		-0.9929796113		0.1182840962		-0.0000713807		-0.0005992315		-0.0000713807		-0.0005992315		-0.9929796113		0.1182840962		
	0.1079028792		-0.9929436215		0.1185858120		-0.0000721125		-0.0006038127		-0.0000721125		-0.0006038127		-0.9929436215		0.1185858120		
	0.1081518703		-0.9929074296		0.1188884382		-0.0000728521		-0.0006084310		-0.0000728521		-0.0006084310		-0.9929074296		0.1188884382		
	0.1084014359		-0.9928710344		0.1191919786		-0.0000735997		-0.0006130866		-0.0000735997		-0.0006130866		-0.9928710344		0.1191919786		
	0.1086515775		-0.9928344345		0.1194964370		-0.0000743553		-0.0006177801		-0.0000743553		-0.0006177801		-0.9928344345		0.1194964370		
	0.1089022962		-0.9927976286		0.1198018171		-0.0000751191		-0.0006225116		-0.0000751191		-0.0006225116		-0.9927976286		0.1198018171		
	0.1091535935		-0.9927606154		0.1201081229		-0.0000758910		-0.0006272815		-0.0000758910		-0.0006272815		-0.9927606154		0.1201081229		
	0.1094054707		-0.9927233935		0.1204153582		-0.0000766713		-0.0006320902		-0.0000766713		-0.0006320902		-0.9927233935		0.1204153582		
	0.1096579291		-0.9926859616		0.1207235268		-0.0000774599		-0.0006369379		-0.0000774599		-0.0006369379		-0.9926859616		0.1207235268		
	0.1099109701		-0.9926483183		0.1210326328		-0.0000782571		-0.0006418251		-0.0000782571		-0.0006418251		-0.9926483183		0.1210326328		
	0.1101645950		-0.9926104621		0.1213426799		-0.0000790629		-0.0006467521		-0.0000790629		-0.0006467521		-0.9926104621		0.1213426799		
	0.1104188051		-0.9925723918		0.1216536722		-0.0000798773		-0.0006517193		-0.0000798773		-0.0006517193		-0.9925723918		0.1216536722		
	0.1106736018		-0.9925341059		0.1219656136		-0.0000807006		-0.0006567269		-0.0000807006		-0.0006567269		-0.9925341059		0.1219656136		
	0.1109289865		-0.9924956029		0.1222785082		-0.0000815328		-0.0006617754		-0.0000815328		-0.0006617754		-0.9924956029		0.1222785082		
	0.1111849605		-0.9924568816		0.1225923599		-0.0000823739		-0.0006668652		-0.0000823739		-0.0006668652		-0.9924568816		0.1225923599		
	0.1114415251		-0.9924179404		0.1229071728		-0.0000832242		-0.0006719965		-0.0000832242		-0.0006719965		-0.9924179404		0.1229071728		
	0.1116986818		-0.9923787778		0.1232229510		-0.0000840837		-0.0006771698		-0.0000840837		-0.0006771698		-0.9923787778		0.1232229510		
	0.1119564319		-0.9923393925		0.1235396987		-0.0000849525		-0.0006823854		-0.0000849525		-0.0006823854		-0.9923393925		0.1235396987		
	0.1122147768		-0.9922997830		0.1238574198		-0.0000858307		-0.0006876437		-0.0000858307		-0.0006876437		-0.9922997830		0.1238574198		
	0.1124737178		-0.9922599477		0.1241761186		-0.0000867184		-0.0006929451		-0.0000867184		-0.0006929451		-0.9922599477		0.1241761186		
	0.1127332564		-0.9922198853		0.1244957992		-0.0000876158		-0.0006982899		-0.0000876158		-0.0006982899		-0.9922198853		0.1244957992		
	0.1129933938		-0.9921795940		0.1248164659		-0.0000885230		-0.0007036787		-0.0000885230		-0.0007036787		-0.9921795940		0.1248164659		
	0.1132541315		-0.9921390726		0.1251381228		-0.0000894400		-0.0007091117		-0.0000894400		-0.0007091117		-0.9921390726		0.1251381228		
	0.1135154709		-0.9920983194		0.1254607743		-0.0000903670		-0.0007145893		-0.0000903670		-0.0007145893		-0.9920983194		0.1254607743		
	0.1137774133		-0.9920573328		0.1257844246		-0.0000913041		-0.0007201120		-0.0000913041		-0.0007201120		-0.9920573328		0.1257844246		
	0.1140399602		-0.9920161114		0.1261090780		-0.0000922514		-0.0007256802		-0.0000922514		-0.0007256802		-0.9920161114		0.1261090780		
	0.1143031129		-0.9919746536		0.1264347388		-0.0000932090		-0.0007312942		-0.0000932090		-0.0007312942		-0.9919746536		0.1264347388		
	0.1145668729		-0.9919329577		0.1267614115		-0.0000941771		-0.0007369545		-0.0000941771		-0.0007369545		-0.9919329577		0.1267614115		
	0.1148312415		-0.9918910222		0.1270891003		-0.0000951558		-0.0007426615		-0.0000951558		-0.0007426615		-0.9918910222		0.1270891003		
	0.1150962201		-0.9918488455		0.1274178098		-0.0000961452		-0.0007484156		-0.0000961452		-0.0007484156		-0.9918488455		0.1274178098		
	0.1153618102		-0.9918064260		0.1277475443		-0.0000971454		-0.0007542172		-0.0000971454		-0.0007542172		-0.9918064260		0.1277475443		
	0.1156280131		-0.9917637620		0.1280783084		-0.0000981565		-0.0007600669		-0.0000981565		-0.0007600669		-0.9917637620		0.1280783084		
	0.1158948303		-0.9917208519		0.1284101065		-0.0000991787		-0.0007659649		-0.0000991787		-0.0007659649		-0.9917208519		0.1284101065		
	0.1161622633		-0.9916776940		0.1287429431		-0.0001002122		-0.0007719118		-0.0001002122		-0.0007719118		-0.9916776940		0.1287429431		
	0.1164303133		-0.9916342866		0.1290768229		-0.0001012570		-0.0007779079		-0.0001012570		-0.0007779079		-0.9916342866		0.1290768229		
	0.1166989819		-0.9915906281		0.1294117504		-0.0001023132		-0.0007839538		-0.0001023132		-0.0007839538		-0.9915906281		0.1294117504		
	0.1169682704		-0.9915467168		0.1297477302		-0.0001033811		-0.0007900499		-0.0001033811		-0.0007900499		-0.9915467168		0.1297477302		
	0.1172381803		-0.9915025510		0.1300847670		-0.0001044607		-0.0007961966		-0.0001044607		-0.0007961966		-0.9915025510		0.1300847670		
	0.1175087131		-0.9914581288		0.1304228654		-0.0001055522		-0.0008023945		-0.0001055522		-0.0008023945		-0.9914581288		0.1304228654		
	0.1177798701		-0.9914134487		0.1307620302		-0.0001066557		-0.0008086439		-0.0001066557		-0.0008086439		-0.9914134487		0.1307620302		
	0.1180516529		-0.9913685087		0.1311022661		-0.0001077714		-0.0008149453		-0.0001077714		-0.0008149453		-0.9913685087		0.1311022661		
	0.1183240627		-0.9913233072		0.1314435778		-0.0001088994		-0.0008212992		-0.0001088994		-0.0008212992		-0.9913233072		0.1314435778		
	0.1185971012		-0.9912778424		0.1317859701		-0.0001100398		-0.0008277062		-0.0001100398		-0.0008277062		-0.9912778424		0.1317859701		
	0.1188707698		-0.9912321125		0.1321294479		-0.0001111929		-0.0008341666		-0.0001111929		-0.0008341666		-0.9912321125		0.1321294479		
	0.1191450698		-0.9911861156		0.1324740161		-0.0001123587		-0.0008406810		-0.0001123587		-0.0008406810		-0.9911861156		0.1324740161		
	0.1194200028		-0.9911398499		0.1328196795		-0.0001135374		-0.0008472499		-0.0001135374		-0.0008472499		-0.9911398499		0.1328196795		
	0.1196955702		-0.9910933136		0.1331664430		-0.0001147292		-0.0008538737		-0.0001147292		-0.0008538737		-0.9910933136		0.1331664430		
	0.1199717735		-0.9910465048		0.1335143117		-0.0001159342		-0.0008605530		-0.0001159342		-0.0008605530		-0.9910465048		0.1335143117		
	0.1202486142		-0.9909994216		0.1338632904		-0.0001171525		-0.0008672883		-0.0001171525		-0.0008672883		-0.9909994216		0.1338632904		
	0.1205260937		-0.9909520621		0.1342133842		-0.0001183844		-0.0008740801		-0.0001183844		-0.0008740801		-0.9909520621		0.1342133842		
	0.1208042135		-0.9909044245		0.1345645982		-0.0001196299		-0.0008809289		-0.0001196299		-0.0008809289		-0.9909044245		0.1345645982		
	0.1210829750		-0.9908565068		0.1349169374		-0.0001208894		-0.0008878352		-0.0001208894		-0.0008878352		-0.9908565068		0.1349169374		
	0.1213623798		-0.9908083071		0.1352704069		-0.0001221628		-0.0008947996		-0.0001221628		-0.0008947996		-0.9908083071		0.1352704069		
	0.1216424294		-0.9907598234		0.1356250120		-0.0001234504		-0.0009018227		-0.0001234504		-0.0009018227		-0.9907598234		0.1356250120		
	0.1219231252		-0.9907110537		0.1359807578		-0.0001247524		-0.0009089049		-0.0001247524		-0.0009089049		-0.9907110537		0.1359807578		
	0.1222044687		-0.9906619960		0.1363376495		-0.0001260689		-0.0009160468		-0.0001260689		-0.0009160468		-0.9906619960		0.1363376495		
	0.1224864614		-0.9906126484		0.1366956923		-0.0001274001		-0.0009232489		-0.0001274001		-0.0009232489		-0.9906126484		0.1366956923		
	0.1227691048		-0.9905630087		0.1370548916		-0.0001287462		-0.0009305119		-0.0001287462		-0.0009305119		-0.9905630087		0.1370548916		
	0.1230524004		-0.9905130751		0.1374152527		-0.0001301073		-0.0009378363		-0.0001301073		-0.0009378363		-0.9905130751		0.1374152527		
	0.1233363498		-0.9904628453		0.1377767810		-0.0001314837		-0.0009452226		-0.0001314837		-0.0009452226		-0.9904628453		0.1377767810		
	0.1236209544		-0.9904123173		0.1381394818		-0.0001328755		-0.0009526715		-0.0001328755		-0.0009526715		-0.9904123173		0.1381394818		
	0.1239062157		-0.9903614891		0.1385033605		-0.0001342829		-0.0009601835		-0.0001342829		-0.0009601835		-0.9903614891		0.1385033605		
	0.1241921353		-0.9903103585		0.1388684227		-0.0001357061		-0.0009677592		-0.0001357061		-0.0009677592		-0.9903103585		0.1388684227		
	0.1244787146		-0.9902589234		0.1392346739		-0.0001371453		-0.0009753993		-0.0001371453		-0.0009753993		-0.9902589234		0.1392346739		
	0.1247659553		-0.9902071816		0.1396021195		-0.0001386007		-0.0009831042		-0.0001386007		-0.0009831042		-0.9902071816		0.1396021195		
	0.1250538587		-0.9901551310		0.1399707652		-0.0001400725		-0.0009908747		-0.0001400725		-0.0009908747		-0.9901551310		0.1399707652		
	0.1253424265		-0.9901027694		0.1403406166		-0.0001415608		-0.0009987113		-0.0001415608		-0.0009987113		-0.9901027694		0.1403406166		
	0.1256316602		-0.9900500945		0.1407116793		-0.0001430659		-0.0010066147		-0.0001430659		-0.0010066147		-0.9900500945		0.1407116793		
	0.1259215614		-0.9899971041		0.1410839590		-0.0001445880		-0.0010145854		-0.0001445880		-0.0010145854		-0.9899971041		0.1410839590		
	0.1262121315		-0.9899437961		0.1414574616		-0.0001461273		-0.0010226242		-0.0001461273		-0.0010226242		-0.9899437961		0.1414574616		
	0.1265033720		-0.9898901681		0.1418321926		-0.0001476840		-0.0010307317		-0.0001476840		-0.0010307317		-0.9898901681		0.1418321926		
	0.1267952847		-0.9898362179		0.1422081580		-0.0001492583		-0.0010389084		-0.0001492583		-0.0010389084		-0.9898362179		0.1422081580		
	0.1270878709		-0.9897819431		0.1425853636		-0.0001508504		-0.0010471552		-0.0001508504		-0.0010471552		-0.9897819431		0.1425853636		
	0.1273811323		-0.9897273414		0.1429638153		-0.0001524606		-0.0010554726		-0.0001524606		-0.0010554726		-0.9897273414		0.1429638153		
	0.1276750704		-0.9896724105		0.1433435190		-0.0001540890		-0.0010638613		-0.0001540890		-0.0010638613		-0.9896724105		0.1433435190		
	0.1279696868		-0.9896171480		0.1437244807		-0.0001557359		-0.0010723220		-0.0001557359		-0.0010723220		-0.9896171480		0.1437244807		
	0.1282649831		-0.9895615515		0.1441067064		-0.0001574015		-0.0010808553		-0.0001574015		-0.0010808553		-0.9895615515		0.1441067064		
	0.1285609607		-0.9895056186		0.1444902021		-0.0001590861		-0.0010894621		-0.0001590861		-0.0010894621		-0.9895056186		0.1444902021		
	0.1288576213		-0.9894493469		0.1448749740		-0.0001607899		-0.0010981429		-0.0001607899		-0.0010981429		-0.9894493469		0.1448749740		
	0.1291549665		-0.9893927340		0.1452610282		-0.0001625130		-0.0011068984		-0.0001625130		-0.0011068984		-0.9893927340		0.1452610282		
	0.1294529978		-0.9893357773		0.1456483709		-0.0001642558		-0.0011157295		-0.0001642558		-0.0011157295		-0.9893357773		0.1456483709		
	0.1297517169		-0.9892784744		0.1460370083		-0.0001660186		-0.0011246367		-0.0001660186		-0.0011246367		-0.9892784744		0.1460370083		
	0.1300511252		-0.9892208227		0.1464269466		-0.0001678014		-0.0011336209		-0.0001678014		-0.0011336209		-0.9892208227		0.1464269466		
	0.1303512245		-0.9891628197		0.1468181922		-0.0001696047		-0.0011426828		-0.0001696047		-0.0011426828		-0.9891628197		0.1468181922		
	0.1306520162		-0.9891044629		0.1472107515		-0.0001714286		-0.0011518231		-0.0001714286		-0.0011518231		-0.9891044629		0.1472107515		
	0.1309535020		-0.9890457497		0.1476046308		-0.0001732733		-0.0011610426		-0.0001732733		-0.0011610426		-0.9890457497		0.1476046308		
	0.1312556836		-0.9889866774		0.1479998365		-0.0001751393		-0.0011703420		-0.0001751393		-0.0011703420		-0.9889866774		0.1479998365		
	0.1315585624		-0.9889272434		0.1483963752		-0.0001770267		-0.0011797221		-0.0001770267		-0.0011797221		-0.9889272434		0.1483963752		
	0.1318621401		-0.9888674451		0.1487942535		-0.0001789357		-0.0011891838		-0.0001789357		-0.0011891838		-0.9888674451		0.1487942535		
	0.1321664184		-0.9888072798		0.1491934778		-0.0001808667		-0.0011987277		-0.0001808667		-0.0011987277		-0.9888072798		0.1491934778		
	0.1324713988		-0.9887467447		0.1495940548		-0.0001828200		-0.0012083547		-0.0001828200		-0.0012083547		-0.9887467447		0.1495940548		
	0.1327770829		-0.9886858372		0.1499959913		-0.0001847958		-0.0012180656		-0.0001847958		-0.0012180656		-0.9886858372		0.1499959913		
	0.1330834725		-0.9886245546		0.1503992938		-0.0001867943		-0.0012278611		-0.0001867943		-0.0012278611		-0.9886245546		0.1503992938		
	0.1333905690		-0.9885628939		0.1508039692		-0.0001888159		-0.0012377422		-0.0001888159		-0.0012377422		-0.9885628939		0.1508039692		
	0.1336983742		-0.9885008525		0.1512100244		-0.0001908609		-0.0012477097		-0.0001908609		-0.0012477097		-0.9885008525		0.1512100244		
	0.1340068896		-0.9884384274		0.1516174661		-0.0001929296		-0.0012577643		-0.0001929296		-0.0012577643		-0.9884384274		0.1516174661		
	0.1343161170		-0.9883756159		0.1520263014		-0.0001950222		-0.0012679070		-0.0001950222		-0.0012679070		-0.9883756159		0.1520263014		
	0.1346260579		-0.9883124150		0.1524365371		-0.0001971391		-0.0012781386		-0.0001971391		-0.0012781386		-0.9883124150		0.1524365371		
	0.1349367141		-0.9882488219		0.1528481803		-0.0001992806		-0.0012884600		-0.0001992806		-0.0012884600		-0.9882488219		0.1528481803		
	0.1352480870		-0.9881848336		0.1532612380		-0.0002014469		-0.0012988721		-0.0002014469		-0.0012988721		-0.9881848336		0.1532612380		
	0.1355601785		-0.9881204471		0.1536757174		-0.0002036384		-0.0013093757		-0.0002036384		-0.0013093757		-0.9881204471		0.1536757174		
	0.1358729902		-0.9880556595		0.1540916257		-0.0002058554		-0.0013199717		-0.0002058554		-0.0013199717		-0.9880556595		0.1540916257		
	0.1361865237		-0.9879904677		0.1545089700		-0.0002080982		-0.0013306611		-0.0002080982		-0.0013306611		-0.9879904677		0.1545089700		
	0.1365007807		-0.9879248687		0.1549277577		-0.0002103672		-0.0013414448		-0.0002103672		-0.0013414448		-0.9879248687		0.1549277577		
	0.1368157628		-0.9878588594		0.1553479961		-0.0002126627		-0.0013523237		-0.0002126627		-0.0013523237		-0.9878588594		0.1553479961		
	0.1371314718		-0.9877924367		0.1557696926		-0.0002149851		-0.0013632987		-0.0002149851		-0.0013632987		-0.9877924367		0.1557696926		
	0.1374479093		-0.9877255976		0.1561928545		-0.0002173346		-0.0013743709		-0.0002173346		-0.0013743709		-0.9877255976		0.1561928545		
	0.1377650770		-0.9876583387		0.1566174894		-0.0002197116		-0.0013855411		-0.0002197116		-0.0013855411		-0.9876583387		0.1566174894		
	0.1380829765		-0.9875906570		0.1570436049		-0.0002221164		-0.0013968103		-0.0002221164		-0.0013968103		-0.9875906570		0.1570436049		
	0.1384016097		-0.9875225492		0.1574712086		-0.0002245495		-0.0014081796		-0.0002245495		-0.0014081796		-0.9875225492		0.1574712086		
	0.1387209781		-0.9874540120		0.1579003080		-0.0002270112		-0.0014196499		-0.0002270112		-0.0014196499		-0.9874540120		0.1579003080		
	0.1390410834		-0.9873850422		0.1583309109		-0.0002295019		-0.0014312222		-0.0002295019		-0.0014312222		-0.9873850422		0.1583309109		
	0.1393619274		-0.9873156365		0.1587630252		-0.0002320218		-0.0014428975		-0.0002320218		-0.0014428975		-0.9873156365		0.1587630252		
	0.1396835118		-0.9872457915		0.1591966586		-0.0002345715		-0.0014546769		-0.0002345715		-0.0014546769		-0.9872457915		0.1591966586		
	0.1400058382		-0.9871755038		0.1596318190		-0.0002371512		-0.0014665614		-0.0002371512		-0.0014665614		-0.9871755038		0.1596318190		
